EXPLAIN
TAG	EISPOT
TITLE	LABEL	Potentiostatic EIS	Test Identifier
DATE	LABEL	2/11/2021	Date
TIME	LABEL	15:20:42	Time
NOTES	NOTES	1	Notes...
	
PSTAT	PSTAT	REF3000-21114	Potentiostat
VDC	POTEN	0.00000E+000	T	DC Voltage (V)
FREQINIT	QUANT	1.00000E+005	Initial Freq. (Hz)
FREQFINAL	QUANT	2.00000E-001	Final Freq. (Hz)
PTSPERDEC	QUANT	1.00000E+001	Points/decade
VAC	QUANT	1.00000E+001	AC Voltage (mV rms)
AREA	QUANT	1.00000E+000	Sample Area (cm^2)
SPEED	SELECTOR	1	Optimize for:
ZGUESS	QUANT	1.00000E+002	Estimated Z (ohms)
EOC	QUANT	0	Open Circuit (V)
SEQUENCER	TOGGLE	TRUE	Run as Sequence
PSTATMODEL	IQUANT	5	Pstat Model
PSTATSECTION	LABEL	REF3000-21114	Pstat Section
PSTATSERIALNO	LABEL	21114	Pstat Serial Number
CTRLMODE	IQUANT	1	Control Mode
ELECTROMETER	IQUANT	0	RE=0 or CS=1
IESTAB	IQUANT	0	I/E Stability
CASPEED	IQUANT	3	Control Amp Speed
CONVENTION	IQUANT	1	Current Convention
ICHRANGE	IQUANT	2	Ich Range
ICHRANGEMODE	TOGGLE	F	Ich Auto Range
ICHOFFSETENABLE	TOGGLE	T	Ich Offset Enable
ICHOFFSET	QUANT	0	Ich Offset (V)
ICHFILTER	IQUANT	3	Ich Filter
VCHRANGE	IQUANT	2	Vch Range
VCHRANGEMODE	TOGGLE	F	Vch Auto Range
VCHOFFSETENABLE	TOGGLE	T	Vch Offset Enable
VCHOFFSET	QUANT	0	Vch Offset (V)
VCHFILTER	IQUANT	3	Vch Filter
ACHRANGE	IQUANT	2	Ach Range
ACHOFFSETENABLE	TOGGLE	F	Ach Offset Enable
ACHOFFSET	QUANT	0	Ach Offset (V)
ACHFILTER	IQUANT	1	Ach Filter
IERANGELOWERLIMIT	IQUANT	2	I/E Range Lower Limit
IERANGEMODE	TOGGLE	F	I/E AutoRange
IERANGE	IQUANT	11	I/E Range
POSFEEDENABLE	TOGGLE	F	Positive Feedback IR Comp
POSFEEDRESISTANCE	QUANT	0	Positive Feedback Resistance (ohm)
ACHSELECT	IQUANT	0	Ach Select
SENSECABLEID	IQUANT	13	Sense Cable ID
PWRCABLEID	IQUANT	13	Power Cable ID
DCCALDATE	LABEL	7/23/2020	DC Calibration Date
ACCALDATE	LABEL	7/23/2020	AC Calibration Date
THERMOSELECT	IQUANT	1	Thermo Select
FRAMEWORKVERSION	LABEL	7.8.2	Framework Version
INSTRUMENTVERSION	LABEL	4.40	Instrument Version
COMPLIANCEVOLTAGE	IQUANT	0	Compliance Voltage
ZCURVE	TABLE
	Pt	Time	Freq	Zreal	Zimag	Zsig	Zmod	Zphz	Idc	Vdc	IERange
	#	s	Hz	ohm	ohm	V	ohm	°	A	V	#
	0	3	100078.1	0.3234074	0.6417218	1	0.7186093	63.25335	-0.0980216	4.855352E-005	11
	1	5	79453.13	0.3232638	0.5098722	1	0.6037128	57.62492	-0.0770321	2.809252E-005	11
	2	7	63140.62	0.3231833	0.4055681	1	0.5185875	51.44986	-0.0655324	-2.09453E-007	11
	3	10	50203.12	0.3231808	0.3217285	1	0.4560209	44.87097	-0.058603	-9.664654E-008	11
	4	12	39890.62	0.3229749	0.254777	1	0.4113685	38.26795	-0.0540693	-1.330199E-005	11
	5	14	31640.63	0.322899	0.2008514	1	0.3802697	31.88265	-0.0504848	-5.777337E-005	11
	6	17	25171.88	0.3228171	0.1578753	1	0.3593543	26.06118	-0.0479085	-2.404996E-005	11
	7	18	20015.62	0.3234471	0.1233931	1	0.3461847	20.88154	-0.0460221	-4.426436E-005	11
	8	20	15890.62	0.3240697	0.0952696	1	0.3377832	16.38222	-0.0444516	-2.60063E-005	11
	9	21	12609.37	0.3250035	0.0726072	1	0.3330151	12.59334	-0.0429661	-3.498944E-005	11
	10	23	10078.13	0.3262973	0.0546427	1	0.3308409	9.50671	-0.0415902	-2.26578E-005	11
	11	25	8015.625	0.3280207	0.0396484	1	0.3304082	6.892007	-0.0402935	-4.372073E-005	11
	12	26	6328.125	0.3302026	0.0270053	1	0.3313051	4.67547	-0.0391375	-6.607662E-005	11
	13	28	5015.625	0.3325493	0.016878	1	0.3329773	2.905459	-0.0381162	-2.770043E-005	11
	14	29	3984.375	0.3353896	0.0086379	1	0.3355008	1.475314	-0.037169	-2.69793E-005	11
	15	31	3170.956	0.3385709	0.0020717	1	0.3385772	0.3505917	-0.0363367	-4.823242E-005	11
	16	32	2527.573	0.3418826	-0.0030149	1	0.3418958	-0.5052457	-0.0355682	-4.004413E-005	11
	17	34	1976.103	0.3457651	-0.0073485	1	0.3458431	-1.217519	-0.0345922	-3.523715E-005	11
	18	35	1577.524	0.3494503	-0.0101447	1	0.3495975	-1.662862	-0.0339331	-2.925195E-005	11
	19	37	1265.625	0.3529389	-0.0121304	1	0.3531473	-1.96847	-0.0331872	-3.85879E-005	11
	20	38	998.264	0.3564231	-0.0133827	1	0.3566742	-2.150295	-0.0324043	-3.817536E-005	11
	21	40	796.875	0.3598116	-0.0140655	1	0.3600864	-2.238624	-0.031714	-5.988708E-005	11
	22	41	627.7902	0.362876	-0.0145432	1	0.3631673	-2.295055	-0.0310908	-4.466845E-005	11
	23	42	505.5147	0.3655139	-0.0146285	1	0.3658065	-2.291853	-0.0303966	-3.1818E-005	11
	24	44	397.9953	0.3680824	-0.0146198	1	0.3683726	-2.274522	-0.0298079	-3.290035E-005	11
	25	45	315.5048	0.3704118	-0.0146357	1	0.3707008	-2.262696	-0.029222	-3.714891E-005	11
	26	47	252.4038	0.3724867	-0.0147253	1	0.3727776	-2.263864	-0.0286851	-4.132397E-005	11
	27	48	198.6229	0.3744074	-0.0149922	1	0.3747074	-2.293046	-0.0281465	-3.826722E-005	11
	28	49	158.3615	0.376384	-0.0154244	1	0.3767	-2.346701	-0.0275545	-4.192632E-005	11
	29	51	125.558	0.3781861	-0.0160786	1	0.3785278	-2.434463	-0.0270762	-4.168343E-005	11
	30	52	100.4464	0.3800797	-0.0170387	1	0.3804615	-2.566818	-0.0265172	-4.59112E-005	11
	31	54	79.00281	0.3821095	-0.0183139	1	0.3825481	-2.744	-0.0260329	-4.926242E-005	11
	32	55	63.3446	0.3841234	-0.0198754	1	0.3846372	-2.961967	-0.0255992	-4.702932E-005	11
	33	57	49.86702	0.3866758	-0.0217894	1	0.3872893	-3.225241	-0.0250585	-5.280939E-005	11
	34	58	39.72458	0.389244	-0.0240834	1	0.3899883	-3.540506	-0.0247604	-4.772239E-005	11
	35	59	31.6723	0.3921959	-0.0268059	1	0.3931108	-3.909987	-0.0243635	-4.996184E-005	11
	36	61	24.93351	0.3955655	-0.029978	1	0.3966998	-4.333879	-0.023695	-5.456596E-005	11
	37	62	19.86229	0.3986409	-0.033659	1	0.4000593	-4.826282	-0.0230713	-4.985649E-005	11
	38	64	15.83615	0.4022968	-0.0370961	1	0.4040035	-5.268388	-0.0229364	-5.28638E-005	11
	39	65	12.40079	0.4084102	-0.0420085	1	0.4105649	-5.872705	-0.0230365	-5.392586E-005	11
	40	66	9.93114	0.412874	-0.0467338	1	0.4155106	-6.457905	-0.0223551	-5.295113E-005	11
	41	68	7.944915	0.4191406	-0.0532459	1	0.4225091	-7.239839	-0.0221981	-5.381718E-005	11
	42	69	6.317385	0.424529	-0.057396	1	0.4283914	-7.699663	-0.0218763	-5.703532E-005	11
	43	71	5.008013	0.4311975	-0.066091	1	0.436233	-8.71409	-0.0214911	-5.323053E-005	11
	44	73	3.945707	0.4383386	-0.0741284	1	0.4445624	-9.59859	-0.0201512	-5.461843E-005	11
	45	76	3.158693	0.4452024	-0.0844128	1	0.4531342	-10.73614	-0.0203708	-6.023014E-005	11
	46	78	2.504006	0.4548496	-0.093958	1	0.4644527	-11.6714	-0.0189039	-5.495455E-005	11
	47	81	1.998082	0.4615529	-0.1064111	1	0.4736607	-12.9827	-0.0185293	-4.34536E-005	11
	48	84	1.584686	0.4688507	-0.1223134	1	0.4845426	-14.62139	-0.0179741	-7.618743E-005	11
	49	88	1.266892	0.4773421	-0.1417174	1	0.497935	-16.53555	-0.0169892	-4.863746E-005	11
	50	92	0.999041	0.4853648	-0.1664137	1	0.5131009	-18.92496	-0.0166456	-7.930986E-005	11
	51	96	0.7923428	0.496287	-0.2014337	1	0.5356083	-22.09132	-0.0160429	0.0001121	11
	52	103	0.633446	0.5038716	-0.2408299	1	0.5584672	-25.54588	-0.0149736	0.0001114	11
	53	110	0.5040323	0.5120381	-0.291959	1	0.589426	-29.69136	-0.013876	0.0001074	11
	54	119	0.400641	0.5212069	-0.3568	1	0.6316351	-34.39417	-0.0127214	0.0001068	11
	55	130	0.316723	0.5321756	-0.4413912	1	0.6914023	-39.67262	-0.0115293	0.0001035	11
	56	144	0.2520161	0.5445634	-0.5470949	1	0.771921	-45.13287	-0.0103415	0.0001025	11
	57	161	0.2003205	0.5601813	-0.6818892	1	0.8824829	-50.59643	-0.0091599	0.0001002	11
